(1715355411.378357) can0 02052C80#FFFFFFFFFFFFFFFF
(1715355411.378392) can0 02052C80#FFFFFFFFFFFFFFFF
(1715355411.962486) can0 02050082#20E7FFFF7F000000
(1715355411.962516) can0 02050082#20E7FFFF7F000000
(1715355412.546520) can0 02050082#A4707DBF00000000
(1715355412.546547) can0 02050082#A4707DBF00000000
(1715355413.132409) can0 02050082#48E17ABF00000000
(1715355413.132441) can0 02050082#48E17ABF00000000
(1715355413.722418) can0 02050082#EC5178BF00000000
(1715355413.722451) can0 02050082#EC5178BF00000000
(1715355414.310446) can0 02050082#90C275BF00000000
(1715355414.310477) can0 02050082#90C275BF00000000
(1715355414.896130) can0 02050082#343373BF00000000
(1715355414.896162) can0 02050082#343373BF00000000
(1715355415.482550) can0 02050082#D8A370BF00000000
(1715355415.482574) can0 02050082#D8A370BF00000000
(1715355416.064252) can0 02050082#7C146EBF00000000
(1715355416.064285) can0 02050082#7C146EBF00000000
(1715355416.645911) can0 02050082#20856BBF00000000
(1715355416.645941) can0 02050082#20856BBF00000000
(1715355417.227796) can0 02050082#C4F568BF00000000
(1715355417.227825) can0 02050082#C4F568BF00000000
(1715355417.809679) can0 02050082#686666BF00000000
(1715355417.809710) can0 02050082#686666BF00000000
(1715355418.392617) can0 02050082#0CD763BF00000000
(1715355418.392645) can0 02050082#0CD763BF00000000
(1715355418.973453) can0 02050082#B04761BF00000000
(1715355418.973488) can0 02050082#B04761BF00000000
(1715355419.553689) can0 02050082#54B85EBF00000000
(1715355419.553716) can0 02050082#54B85EBF00000000
(1715355420.134595) can0 02050082#F8285CBF00000000
(1715355420.134631) can0 02050082#F8285CBF00000000
(1715355420.715402) can0 02050082#9C9959BF00000000
(1715355420.715435) can0 02050082#9C9959BF00000000
(1715355421.298339) can0 02050082#400A57BF00000000
(1715355421.298368) can0 02050082#400A57BF00000000
(1715355421.879566) can0 02050082#E47A54BF00000000
(1715355421.879594) can0 02050082#E47A54BF00000000
(1715355422.463054) can0 02050082#88EB51BF00000000
(1715355422.463086) can0 02050082#88EB51BF00000000
(1715355423.049737) can0 02050082#2C5C4FBF00000000
(1715355423.049763) can0 02050082#2C5C4FBF00000000
(1715355423.635336) can0 02050082#D0CC4CBF00000000
(1715355423.635366) can0 02050082#D0CC4CBF00000000
(1715355424.218666) can0 02050082#743D4ABF00000000
(1715355424.218701) can0 02050082#743D4ABF00000000
(1715355424.799711) can0 02050082#18AE47BF00000000
(1715355424.799779) can0 02050082#18AE47BF00000000
(1715355425.380882) can0 02050082#BC1E45BF00000000
(1715355425.380939) can0 02050082#BC1E45BF00000000
(1715355425.963996) can0 02050082#608F42BF00000000
(1715355425.964025) can0 02050082#608F42BF00000000
(1715355426.545999) can0 02050082#040040BF00000000
(1715355426.546061) can0 02050082#040040BF00000000
(1715355427.129929) can0 02050082#A8703DBF00000000
(1715355427.129959) can0 02050082#A8703DBF00000000
(1715355427.710130) can0 02050082#4CE13ABF00000000
(1715355427.710163) can0 02050082#4CE13ABF00000000
(1715355428.291075) can0 02050082#F05138BF00000000
(1715355428.291111) can0 02050082#F05138BF00000000
(1715355428.871362) can0 02050082#94C235BF00000000
(1715355428.871396) can0 02050082#94C235BF00000000
(1715355429.456049) can0 02050082#383333BF00000000
(1715355429.456085) can0 02050082#383333BF00000000
(1715355430.036224) can0 02050082#DCA330BF00000000
(1715355430.036253) can0 02050082#DCA330BF00000000
(1715355430.620442) can0 02050082#80142EBF00000000
(1715355430.620485) can0 02050082#80142EBF00000000
(1715355431.205097) can0 02050082#24852BBF00000000
(1715355431.205139) can0 02050082#24852BBF00000000
(1715355431.794937) can0 02050082#C8F528BF00000000
(1715355431.794988) can0 02050082#C8F528BF00000000
(1715355432.379299) can0 02050082#6C6626BF00000000
(1715355432.379334) can0 02050082#6C6626BF00000000
(1715355432.963098) can0 02050082#10D723BF00000000
(1715355432.963130) can0 02050082#10D723BF00000000
(1715355433.546406) can0 02050082#B44721BF00000000
(1715355433.546437) can0 02050082#B44721BF00000000
(1715355434.128332) can0 02050082#58B81EBF00000000
(1715355434.128360) can0 02050082#58B81EBF00000000
(1715355434.716095) can0 02050082#FC281CBF00000000
(1715355434.716132) can0 02050082#FC281CBF00000000
(1715355435.298530) can0 02050082#A09919BF00000000
(1715355435.298565) can0 02050082#A09919BF00000000
(1715355435.878821) can0 02050082#440A17BF00000000
(1715355435.878861) can0 02050082#440A17BF00000000
(1715355436.458804) can0 02050082#E87A14BF00000000
(1715355436.458847) can0 02050082#E87A14BF00000000
(1715355437.038151) can0 02050082#8CEB11BF00000000
(1715355437.038186) can0 02050082#8CEB11BF00000000
(1715355437.619819) can0 02050082#305C0FBF00000000
(1715355437.619848) can0 02050082#305C0FBF00000000
(1715355438.199310) can0 02050082#D4CC0CBF00000000
(1715355438.199349) can0 02050082#D4CC0CBF00000000
(1715355438.780898) can0 02050082#783D0ABF00000000
(1715355438.780928) can0 02050082#783D0ABF00000000
(1715355439.362860) can0 02050082#1CAE07BF00000000
(1715355439.362894) can0 02050082#1CAE07BF00000000
(1715355439.941958) can0 02050082#C01E05BF00000000
(1715355439.941989) can0 02050082#C01E05BF00000000
(1715355440.521965) can0 02050082#648F02BF00000000
(1715355440.522007) can0 02050082#648F02BF00000000
(1715355441.102277) can0 02050082#080000BF00000000
(1715355441.102313) can0 02050082#080000BF00000000
(1715355441.689039) can0 02050082#58E1FABE00000000
(1715355441.689070) can0 02050082#58E1FABE00000000
(1715355442.275251) can0 02050082#A0C2F5BE00000000
(1715355442.275294) can0 02050082#A0C2F5BE00000000
(1715355442.859330) can0 02050082#E8A3F0BE00000000
(1715355442.859362) can0 02050082#E8A3F0BE00000000
(1715355443.441167) can0 02050082#3085EBBE00000000
(1715355443.441201) can0 02050082#3085EBBE00000000
(1715355444.021697) can0 02050082#7866E6BE00000000
(1715355444.021727) can0 02050082#7866E6BE00000000
(1715355444.602197) can0 02050082#C047E1BE00000000
(1715355444.602230) can0 02050082#C047E1BE00000000
(1715355445.185336) can0 02050082#0829DCBE00000000
(1715355445.185373) can0 02050082#0829DCBE00000000
(1715355445.771708) can0 02050082#500AD7BE00000000
(1715355445.771756) can0 02050082#500AD7BE00000000
(1715355446.356243) can0 02050082#98EBD1BE00000000
(1715355446.356293) can0 02050082#98EBD1BE00000000
(1715355446.940179) can0 02050082#E0CCCCBE00000000
(1715355446.940234) can0 02050082#E0CCCCBE00000000
(1715355447.523484) can0 02050082#28AEC7BE00000000
(1715355447.523518) can0 02050082#28AEC7BE00000000
(1715355448.103310) can0 02050082#708FC2BE00000000
(1715355448.103339) can0 02050082#708FC2BE00000000
(1715355448.689513) can0 02050082#B870BDBE00000000
(1715355448.689545) can0 02050082#B870BDBE00000000
(1715355449.271109) can0 02050082#0052B8BE00000000
(1715355449.271142) can0 02050082#0052B8BE00000000
(1715355449.857167) can0 02050082#4833B3BE00000000
(1715355449.857190) can0 02050082#4833B3BE00000000
(1715355450.437082) can0 02050082#9014AEBE00000000
(1715355450.437111) can0 02050082#9014AEBE00000000
(1715355451.024551) can0 02050082#D8F5A8BE00000000
(1715355451.024577) can0 02050082#D8F5A8BE00000000
(1715355451.606811) can0 02050082#20D7A3BE00000000
(1715355451.606840) can0 02050082#20D7A3BE00000000
(1715355452.189001) can0 02050082#68B89EBE00000000
(1715355452.189032) can0 02050082#68B89EBE00000000
(1715355452.769350) can0 02050082#B09999BE00000000
(1715355452.769385) can0 02050082#B09999BE00000000
(1715355453.353789) can0 02050082#F87A94BE00000000
(1715355453.353822) can0 02050082#F87A94BE00000000
(1715355453.934549) can0 02050082#405C8FBE00000000
(1715355453.934588) can0 02050082#405C8FBE00000000
(1715355454.523354) can0 02050082#883D8ABE00000000
(1715355454.523385) can0 02050082#883D8ABE00000000
(1715355455.106441) can0 02050082#D01E85BE00000000
(1715355455.106467) can0 02050082#D01E85BE00000000
(1715355455.693435) can0 02050082#180080BE00000000
(1715355455.693460) can0 02050082#180080BE00000000
(1715355456.283035) can0 02050082#BFC275BE00000000
(1715355456.283059) can0 02050082#BFC275BE00000000
(1715355456.868485) can0 02050082#4E856BBE00000000
(1715355456.868561) can0 02050082#4E856BBE00000000
(1715355457.450082) can0 02050082#DD4761BE00000000
(1715355457.450111) can0 02050082#DD4761BE00000000
(1715355458.034633) can0 02050082#6C0A57BE00000000
(1715355458.034667) can0 02050082#6C0A57BE00000000
(1715355458.617319) can0 02050082#FBCC4CBE00000000
(1715355458.617351) can0 02050082#FBCC4CBE00000000
(1715355459.201923) can0 02050082#8A8F42BE00000000
(1715355459.201955) can0 02050082#8A8F42BE00000000
(1715355459.782718) can0 02050082#195238BE00000000
(1715355459.782742) can0 02050082#195238BE00000000
(1715355460.367873) can0 02050082#A8142EBE00000000
(1715355460.367907) can0 02050082#A8142EBE00000000
(1715355460.953301) can0 02050082#37D723BE00000000
(1715355460.953390) can0 02050082#37D723BE00000000
(1715355461.536426) can0 02050082#C69919BE00000000
(1715355461.536481) can0 02050082#C69919BE00000000
(1715355462.118093) can0 02050082#555C0FBE00000000
(1715355462.118125) can0 02050082#555C0FBE00000000
(1715355462.709486) can0 02050082#E41E05BE00000000
(1715355462.709511) can0 02050082#E41E05BE00000000
(1715355463.312574) can0 02050082#E7C2F5BD00000000
(1715355463.312616) can0 02050082#E7C2F5BD00000000
(1715355463.910969) can0 02050082#0648E1BD00000000
(1715355463.910994) can0 02050082#0648E1BD00000000
(1715355464.498754) can0 02050082#25CDCCBD00000000
(1715355464.498785) can0 02050082#25CDCCBD00000000
(1715355465.085144) can0 02050082#4452B8BD00000000
(1715355465.085172) can0 02050082#4452B8BD00000000
(1715355465.671873) can0 02050082#63D7A3BD00000000
(1715355465.671900) can0 02050082#63D7A3BD00000000
(1715355466.261092) can0 02050082#825C8FBD00000000
(1715355466.261117) can0 02050082#825C8FBD00000000
(1715355466.841684) can0 02050082#41C375BD00000000
(1715355466.841719) can0 02050082#41C375BD00000000
(1715355467.427539) can0 02050082#7ECD4CBD00000000
(1715355467.427564) can0 02050082#7ECD4CBD00000000
(1715355468.008676) can0 02050082#BBD723BD00000000
(1715355468.008701) can0 02050082#BBD723BD00000000
(1715355468.594888) can0 02050082#F1C3F5BC00000000
(1715355468.594920) can0 02050082#F1C3F5BC00000000
(1715355469.175517) can0 02050082#6CD8A3BC00000000
(1715355469.175549) can0 02050082#6CD8A3BC00000000
(1715355469.756262) can0 02050082#CED923BC00000000
(1715355469.756298) can0 02050082#CED923BC00000000
(1715355470.339814) can0 02050082#A4F030B500000000
(1715355470.339850) can0 02050082#A4F030B500000000
(1715355470.919583) can0 02050082#46D4233C00000000
(1715355470.919625) can0 02050082#46D4233C00000000
(1715355471.506251) can0 02050082#A8D5A33C00000000
(1715355471.506279) can0 02050082#A8D5A33C00000000
(1715355472.085657) can0 02050082#2DC1F53C00000000
(1715355472.085687) can0 02050082#2DC1F53C00000000
(1715355472.665669) can0 02050082#59D6233D00000000
(1715355472.665694) can0 02050082#59D6233D00000000
(1715355473.245405) can0 02050082#1CCC4C3D00000000
(1715355473.245433) can0 02050082#1CCC4C3D00000000
(1715355473.832166) can0 02050082#DFC1753D00000000
(1715355473.832197) can0 02050082#DFC1753D00000000
(1715355474.414670) can0 02050082#D15B8F3D00000000
(1715355474.414696) can0 02050082#D15B8F3D00000000
(1715355474.997811) can0 02050082#B2D6A33D00000000
(1715355474.997841) can0 02050082#B2D6A33D00000000
(1715355475.579644) can0 02050082#9351B83D00000000
(1715355475.579671) can0 02050082#9351B83D00000000
(1715355476.165989) can0 02050082#74CCCC3D00000000
(1715355476.166026) can0 02050082#74CCCC3D00000000
(1715355476.746638) can0 02050082#5547E13D00000000
(1715355476.746672) can0 02050082#5547E13D00000000
(1715355477.327981) can0 02050082#36C2F53D00000000
(1715355477.328009) can0 02050082#36C2F53D00000000
(1715355477.907957) can0 02050082#8C1E053E00000000
(1715355477.907980) can0 02050082#8C1E053E00000000
(1715355478.488938) can0 02050082#FD5B0F3E00000000
(1715355478.488967) can0 02050082#FD5B0F3E00000000
(1715355479.069119) can0 02050082#6E99193E00000000
(1715355479.069139) can0 02050082#6E99193E00000000
(1715355479.649521) can0 02050082#DFD6233E00000000
(1715355479.649552) can0 02050082#DFD6233E00000000
(1715355480.235976) can0 02050082#50142E3E00000000
(1715355480.236001) can0 02050082#50142E3E00000000
(1715355480.820392) can0 02050082#C151383E00000000
(1715355480.820416) can0 02050082#C151383E00000000
(1715355481.406097) can0 02050082#328F423E00000000
(1715355481.406127) can0 02050082#328F423E00000000
(1715355481.993592) can0 02050082#A3CC4C3E00000000
(1715355481.993613) can0 02050082#A3CC4C3E00000000
(1715355482.578095) can0 02050082#140A573E00000000
(1715355482.578123) can0 02050082#140A573E00000000
(1715355483.160260) can0 02050082#8547613E00000000
(1715355483.160281) can0 02050082#8547613E00000000
(1715355483.743918) can0 02050082#F6846B3E00000000
(1715355483.743948) can0 02050082#F6846B3E00000000
(1715355484.325513) can0 02050082#67C2753E00000000
(1715355484.325540) can0 02050082#67C2753E00000000
(1715355484.908394) can0 02050082#D8FF7F3E00000000
(1715355484.908422) can0 02050082#D8FF7F3E00000000
(1715355485.492374) can0 02050082#A41E853E00000000
(1715355485.492404) can0 02050082#A41E853E00000000
(1715355486.073347) can0 02050082#5C3D8A3E00000000
(1715355486.073376) can0 02050082#5C3D8A3E00000000
(1715355486.658506) can0 02050082#145C8F3E00000000
(1715355486.658533) can0 02050082#145C8F3E00000000
(1715355487.246385) can0 02050082#CC7A943E00000000
(1715355487.246417) can0 02050082#CC7A943E00000000
(1715355487.832804) can0 02050082#8499993E00000000
(1715355487.832828) can0 02050082#8499993E00000000
(1715355488.413916) can0 02050082#3CB89E3E00000000
(1715355488.413942) can0 02050082#3CB89E3E00000000
(1715355488.996402) can0 02050082#F4D6A33E00000000
(1715355488.996434) can0 02050082#F4D6A33E00000000
(1715355489.579605) can0 02050082#ACF5A83E00000000
(1715355489.579625) can0 02050082#ACF5A83E00000000
(1715355490.163903) can0 02050082#6414AE3E00000000
(1715355490.163930) can0 02050082#6414AE3E00000000
(1715355490.746007) can0 02050082#1C33B33E00000000
(1715355490.746033) can0 02050082#1C33B33E00000000
(1715355491.334222) can0 02050082#D451B83E00000000
(1715355491.334249) can0 02050082#D451B83E00000000
(1715355491.920342) can0 02050082#8C70BD3E00000000
(1715355491.920371) can0 02050082#8C70BD3E00000000
(1715355492.505907) can0 02050082#448FC23E00000000
(1715355492.505941) can0 02050082#448FC23E00000000
(1715355493.093975) can0 02050082#FCADC73E00000000
(1715355493.094004) can0 02050082#FCADC73E00000000
(1715355493.680586) can0 02050082#B4CCCC3E00000000
(1715355493.680620) can0 02050082#B4CCCC3E00000000
(1715355494.260947) can0 02050082#6CEBD13E00000000
(1715355494.260977) can0 02050082#6CEBD13E00000000
(1715355494.846045) can0 02050082#240AD73E00000000
(1715355494.846070) can0 02050082#240AD73E00000000
(1715355495.430397) can0 02050082#DC28DC3E00000000
(1715355495.430430) can0 02050082#DC28DC3E00000000
(1715355496.018622) can0 02050082#9447E13E00000000
(1715355496.018650) can0 02050082#9447E13E00000000
(1715355496.604834) can0 02050082#4C66E63E00000000
(1715355496.604864) can0 02050082#4C66E63E00000000
(1715355497.184899) can0 02050082#0485EB3E00000000
(1715355497.184937) can0 02050082#0485EB3E00000000
(1715355497.773402) can0 02050082#BCA3F03E00000000
(1715355497.773429) can0 02050082#BCA3F03E00000000
(1715355498.358397) can0 02050082#74C2F53E00000000
(1715355498.358432) can0 02050082#74C2F53E00000000
(1715355498.941686) can0 02050082#2CE1FA3E00000000
(1715355498.941719) can0 02050082#2CE1FA3E00000000
(1715355499.524257) can0 02050082#E4FFFF3E00000000
(1715355499.524287) can0 02050082#E4FFFF3E00000000
(1715355500.104442) can0 02050082#4E8F023F00000000
(1715355500.104476) can0 02050082#4E8F023F00000000
(1715355500.690601) can0 02050082#AA1E053F00000000
(1715355500.690636) can0 02050082#AA1E053F00000000
(1715355501.272105) can0 02050082#06AE073F00000000
(1715355501.272135) can0 02050082#06AE073F00000000
(1715355501.860176) can0 02050082#623D0A3F00000000
(1715355501.860203) can0 02050082#623D0A3F00000000
(1715355502.445496) can0 02050082#BECC0C3F00000000
(1715355502.445522) can0 02050082#BECC0C3F00000000
(1715355503.033433) can0 02050082#1A5C0F3F00000000
(1715355503.033464) can0 02050082#1A5C0F3F00000000
(1715355503.624009) can0 02050082#76EB113F00000000
(1715355503.624032) can0 02050082#76EB113F00000000
(1715355504.214523) can0 02050082#D27A143F00000000
(1715355504.214561) can0 02050082#D27A143F00000000
(1715355504.800534) can0 02050082#2E0A173F00000000
(1715355504.800563) can0 02050082#2E0A173F00000000
(1715355505.385464) can0 02050082#8A99193F00000000
(1715355505.385498) can0 02050082#8A99193F00000000
(1715355505.971515) can0 02050082#E6281C3F00000000
(1715355505.971536) can0 02050082#E6281C3F00000000
(1715355506.558953) can0 02050082#42B81E3F00000000
(1715355506.558987) can0 02050082#42B81E3F00000000
(1715355507.157552) can0 02050082#9E47213F00000000
(1715355507.157589) can0 02050082#9E47213F00000000
(1715355507.745160) can0 02050082#FAD6233F00000000
(1715355507.745197) can0 02050082#FAD6233F00000000
(1715355508.331061) can0 02050082#5666263F00000000
(1715355508.331123) can0 02050082#5666263F00000000
(1715355508.912685) can0 02050082#B2F5283F00000000
(1715355508.912709) can0 02050082#B2F5283F00000000
(1715355509.495362) can0 02050082#0E852B3F00000000
(1715355509.495394) can0 02050082#0E852B3F00000000
(1715355510.077326) can0 02050082#6A142E3F00000000
(1715355510.077354) can0 02050082#6A142E3F00000000
(1715355510.657647) can0 02050082#C6A3303F00000000
(1715355510.657691) can0 02050082#C6A3303F00000000
(1715355511.240670) can0 02050082#2233333F00000000
(1715355511.240693) can0 02050082#2233333F00000000
(1715355511.822575) can0 02050082#7EC2353F00000000
(1715355511.822609) can0 02050082#7EC2353F00000000
(1715355512.403912) can0 02050082#DA51383F00000000
(1715355512.403960) can0 02050082#DA51383F00000000
(1715355512.983950) can0 02050082#36E13A3F00000000
(1715355512.983998) can0 02050082#36E13A3F00000000
(1715355513.563556) can0 02050082#92703D3F00000000
(1715355513.563586) can0 02050082#92703D3F00000000
(1715355514.143116) can0 02050082#EEFF3F3F00000000
(1715355514.143144) can0 02050082#EEFF3F3F00000000
(1715355514.723461) can0 02050082#4A8F423F00000000
(1715355514.723494) can0 02050082#4A8F423F00000000
(1715355515.305529) can0 02050082#A61E453F00000000
(1715355515.305579) can0 02050082#A61E453F00000000
(1715355515.885641) can0 02050082#02AE473F00000000
(1715355515.885669) can0 02050082#02AE473F00000000
(1715355516.472271) can0 02050082#5E3D4A3F00000000
(1715355516.472297) can0 02050082#5E3D4A3F00000000
(1715355517.051775) can0 02050082#BACC4C3F00000000
(1715355517.051810) can0 02050082#BACC4C3F00000000
(1715355517.637215) can0 02050082#165C4F3F00000000
(1715355517.637242) can0 02050082#165C4F3F00000000
(1715355518.217229) can0 02050082#72EB513F00000000
(1715355518.217258) can0 02050082#72EB513F00000000
(1715355518.797818) can0 02050082#CE7A543F00000000
(1715355518.797846) can0 02050082#CE7A543F00000000
(1715355519.377568) can0 02050082#2A0A573F00000000
(1715355519.377599) can0 02050082#2A0A573F00000000
(1715355519.960218) can0 02050082#8699593F00000000
(1715355519.960243) can0 02050082#8699593F00000000
(1715355520.545834) can0 02050082#E2285C3F00000000
(1715355520.545858) can0 02050082#E2285C3F00000000
(1715355521.137873) can0 02050082#3EB85E3F00000000
(1715355521.137904) can0 02050082#3EB85E3F00000000
(1715355521.724572) can0 02050082#9A47613F00000000
(1715355521.724597) can0 02050082#9A47613F00000000
(1715355522.313579) can0 02050082#F6D6633F00000000
(1715355522.313606) can0 02050082#F6D6633F00000000
(1715355522.897920) can0 02050082#5266663F00000000
(1715355522.897949) can0 02050082#5266663F00000000
